
T0B6C 000:101 SEGGER J-Link V6.12a Log File (0000ms, 0062ms total)
T0B6C 000:101 DLL Compiled: Dec  2 2016 16:44:26 (0000ms, 0062ms total)
T0B6C 000:101 Logging started @ 2024-11-14 23:27 (0000ms, 0062ms total)
T0B6C 000:101 JLINK_SetWarnOutHandler(...) (0000ms, 0062ms total)
T0B6C 000:101 JLINK_OpenEx(...)
Firmware: J-Link ARM-OB STM32 compiled Aug 22 2012 19:52:04
Hardware: V7.00
S/N: 20090928
Feature(s): RDI,FlashDL,FlashBP,JFlash,GDBWEBSRV Webserver running on local port 19080 (0050ms, 0112ms total)
T0B6C 000:101   returns O.K. (0050ms, 0112ms total)
T0B6C 000:151 JLINK_SetErrorOutHandler(...) (0000ms, 0112ms total)
T0B6C 000:151 JLINK_ExecCommand("ProjectFile = "D:\Aproject\foc\mini_ctrl\mini_control\MDK-ARM\JLinkSettings.ini"", ...).   returns 0x00 (0081ms, 0193ms total)
T0B6C 000:239 JLINK_ExecCommand("Device = STM32F103VE", ...). Device "STM32F103VE" selected.  returns 0x00 (0053ms, 0246ms total)
T0B6C 000:293 JLINK_ExecCommand("DisableConnectionTimeout", ...).   returns 0x01 (0000ms, 0247ms total)
T0B6C 000:293 JLINK_GetHardwareVersion()  returns 0x11170 (0000ms, 0247ms total)
T0B6C 000:293 JLINK_GetDLLVersion()  returns 61201 (0000ms, 0247ms total)
T0B6C 000:293 JLINK_GetFirmwareString(...) (0000ms, 0247ms total)
T0B6C 000:309 JLINK_GetDLLVersion()  returns 61201 (0000ms, 0247ms total)
T0B6C 000:309 JLINK_GetCompileDateTime() (0000ms, 0247ms total)
T0B6C 000:314 JLINK_GetFirmwareString(...) (0000ms, 0247ms total)
T0B6C 000:320 JLINK_GetHardwareVersion()  returns 0x11170 (0000ms, 0247ms total)
T0B6C 000:340 JLINK_TIF_Select(JLINKARM_TIF_SWD)  returns 0x00 (0000ms, 0247ms total)
T0B6C 000:340 JLINK_SetSpeed(5000) (0000ms, 0247ms total)
T0B6C 000:340 JLINK_GetId() >0x108 TIF>Found SWD-DP with ID 0x1BA01477 >0x0D TIF> >0x28 TIF> >0x0D TIF> >0x28 TIF> >0x0D TIF> >0x28 TIF> >0x0D TIF> >0x28 TIF> >0x0D TIF> >0x21 TIF> >0x0D TIF> >0x28 TIF> >0x0D TIF> >0x28 TIF> >0x0D TIF> >0x28 TIF> >0x0D TIF> >0x21 TIF> >0x0D TIF> >0x21 TIF> >0x0D TIF> >0x28 TIF> >0x0D TIF> >0x21 TIF> >0x0D TIF> >0x21 TIF> >0x0D TIF> >0x28 TIF> >0x0D TIF> >0x21 TIF> >0x0D TIF> >0x21 TIF> >0x0D TIF> >0x28 TIF> >0x0D TIF> >0x21 TIF> >0x0D TIF> >0x21 TIF> >0x0D TIF>
 >0x28 TIF> >0x0D TIF> >0x21 TIF> >0x0D TIF> >0x21 TIF> >0x0D TIF> >0x28 TIF> >0x0D TIF> >0x21 TIF> >0x0D TIF> >0x21 TIF> >0x0D TIF> >0x28 TIF> >0x0D TIF> >0x21 TIF> >0x0D TIF> >0x21 TIF> >0x108 TIF>Found SWD-DP with ID 0x1BA01477 >0x0D TIF> >0x28 TIF> >0x0D TIF> >0x28 TIF> >0x0D TIF> >0x28 TIF> >0x0D TIF> >0x28 TIF> >0x0D TIF> >0x21 TIF> >0x0D TIF> >0x28 TIF> >0x0D TIF> >0x28 TIF> >0x0D TIF> >0x21 TIF> >0x0D TIF> >0x21 TIF> >0x0D TIF> >0x21 TIF>AP-IDR: 0x14770011, Type: AHB-AP >0x0D TIF> >0x28 TIF>
 >0x0D TIF> >0x28 TIF> >0x0D TIF> >0x28 TIF> >0x0D TIF> >0x21 TIF> >0x0D TIF> >0x21 TIF> >0x0D TIF> >0x28 TIF> >0x0D TIF> >0x21 TIF> >0x0D TIF> >0x21 TIF>Found Cortex-M3 r1p1, Little endian. -- CPU_ReadMem(4 bytes @ 0xE000EDF0) -- CPU_ReadMem(4 bytes @ 0xE0002000)FPUnit: 6 code (BP) slots and 2 literal slots -- CPU_ReadMem(4 bytes @ 0xE000EDFC) -- CPU_ReadMem(4 bytes @ 0xE0001000) -- CPU_WriteMem(4 bytes @ 0xE0001000) -- CPU_ReadMem(4 bytes @ 0xE000ED88) -- CPU_WriteMem(4 bytes @ 0xE000ED88)
 -- CPU_ReadMem(4 bytes @ 0xE000ED88) -- CPU_WriteMem(4 bytes @ 0xE000ED88)CoreSight components:ROMTbl 0 @ E00FF000 -- CPU_ReadMem(16 bytes @ 0xE00FF000) -- CPU_ReadMem(16 bytes @ 0xE000EFF0) -- CPU_ReadMem(16 bytes @ 0xE000EFE0)ROMTbl 0 [0]: FFF0F000, CID: B105E00D, PID: 001BB000 SCS -- CPU_ReadMem(16 bytes @ 0xE0001FF0) -- CPU_ReadMem(16 bytes @ 0xE0001FE0)ROMTbl 0 [1]: FFF02000, CID: B105E00D, PID: 001BB002 DWT -- CPU_ReadMem(16 bytes @ 0xE0002FF0) -- CPU_ReadMem(16 bytes @ 0xE0002FE0)
ROMTbl 0 [2]: FFF03000, CID: B105E00D, PID: 000BB003 FPB -- CPU_ReadMem(16 bytes @ 0xE0000FF0) -- CPU_ReadMem(16 bytes @ 0xE0000FE0)ROMTbl 0 [3]: FFF01000, CID: B105E00D, PID: 001BB001 ITM -- CPU_ReadMem(16 bytes @ 0xE00FF010) -- CPU_ReadMem(16 bytes @ 0xE0040FF0) -- CPU_ReadMem(16 bytes @ 0xE0040FE0)ROMTbl 0 [4]: FFF41000, CID: B105900D, PID: 001BB923 TPIU-Lite -- CPU_ReadMem(16 bytes @ 0xE0041FF0) -- CPU_ReadMem(16 bytes @ 0xE0041FE0)ROMTbl 0 [5]: FFF42000, CID: B105900D, PID: 101BB924 ETM-M3
 >0x0D TIF> >0x21 TIF>  returns 0x1BA01477 (0158ms, 0405ms total)
T0B6C 000:498 JLINK_GetDLLVersion()  returns 61201 (0000ms, 0405ms total)
T0B6C 000:498 JLINK_CORE_GetFound()  returns 0x30000FF (0000ms, 0405ms total)
T0B6C 000:498 JLINK_GetDebugInfo(0x100) -- Value=0xE00FF000  returns 0x00 (0001ms, 0406ms total)
T0B6C 000:505 JLINK_ReadMem (0xE00FF000, 0x0020 Bytes, ...) -- CPU is running -- CPU_ReadMem(32 bytes @ 0xE00FF000) - Data: 03 F0 F0 FF 03 20 F0 FF 03 30 F0 FF 03 10 F0 FF ...  returns 0x00 (0001ms, 0407ms total)
T0B6C 000:506 JLINK_ReadMem (0xE000EFF0, 0x0010 Bytes, ...) -- CPU is running -- CPU_ReadMem(16 bytes @ 0xE000EFF0) - Data: 0D 00 00 00 E0 00 00 00 05 00 00 00 B1 00 00 00  returns 0x00 (0001ms, 0408ms total)
T0B6C 000:507 JLINK_ReadMem (0xE000EFD0, 0x0020 Bytes, ...) -- CPU is running -- CPU_ReadMem(32 bytes @ 0xE000EFD0) - Data: 04 00 00 00 00 00 00 00 00 00 00 00 00 00 00 00 ...  returns 0x00 (0001ms, 0409ms total)
T0B6C 000:508 JLINK_ReadMem (0xE0001FF0, 0x0010 Bytes, ...) -- CPU is running -- CPU_ReadMem(16 bytes @ 0xE0001FF0) - Data: 0D 00 00 00 E0 00 00 00 05 00 00 00 B1 00 00 00  returns 0x00 (0001ms, 0410ms total)
T0B6C 000:509 JLINK_ReadMem (0xE0001FD0, 0x0020 Bytes, ...) -- CPU is running -- CPU_ReadMem(32 bytes @ 0xE0001FD0) - Data: 04 00 00 00 00 00 00 00 00 00 00 00 00 00 00 00 ...  returns 0x00 (0000ms, 0410ms total)
T0B6C 000:509 JLINK_ReadMem (0xE0002FF0, 0x0010 Bytes, ...) -- CPU is running -- CPU_ReadMem(16 bytes @ 0xE0002FF0) - Data: 0D 00 00 00 E0 00 00 00 05 00 00 00 B1 00 00 00  returns 0x00 (0001ms, 0411ms total)
T0B6C 000:510 JLINK_ReadMem (0xE0002FD0, 0x0020 Bytes, ...) -- CPU is running -- CPU_ReadMem(32 bytes @ 0xE0002FD0) - Data: 04 00 00 00 00 00 00 00 00 00 00 00 00 00 00 00 ...  returns 0x00 (0001ms, 0412ms total)
T0B6C 000:511 JLINK_ReadMem (0xE0000FF0, 0x0010 Bytes, ...) -- CPU is running -- CPU_ReadMem(16 bytes @ 0xE0000FF0) - Data: 0D 00 00 00 E0 00 00 00 05 00 00 00 B1 00 00 00  returns 0x00 (0001ms, 0413ms total)
T0B6C 000:512 JLINK_ReadMem (0xE0000FD0, 0x0020 Bytes, ...) -- CPU is running -- CPU_ReadMem(32 bytes @ 0xE0000FD0) - Data: 04 00 00 00 00 00 00 00 00 00 00 00 00 00 00 00 ...  returns 0x00 (0001ms, 0414ms total)
T0B6C 000:513 JLINK_ReadMem (0xE0040FF0, 0x0010 Bytes, ...) -- CPU is running -- CPU_ReadMem(16 bytes @ 0xE0040FF0) - Data: 0D 00 00 00 90 00 00 00 05 00 00 00 B1 00 00 00  returns 0x00 (0000ms, 0414ms total)
T0B6C 000:513 JLINK_ReadMem (0xE0040FD0, 0x0020 Bytes, ...) -- CPU is running -- CPU_ReadMem(32 bytes @ 0xE0040FD0) - Data: 04 00 00 00 00 00 00 00 00 00 00 00 00 00 00 00 ...  returns 0x00 (0001ms, 0415ms total)
T0B6C 000:514 JLINK_ReadMem (0xE0041FF0, 0x0010 Bytes, ...) -- CPU is running -- CPU_ReadMem(16 bytes @ 0xE0041FF0) - Data: 0D 00 00 00 90 00 00 00 05 00 00 00 B1 00 00 00  returns 0x00 (0001ms, 0416ms total)
T0B6C 000:515 JLINK_ReadMem (0xE0041FD0, 0x0020 Bytes, ...) -- CPU is running -- CPU_ReadMem(32 bytes @ 0xE0041FD0) - Data: 04 00 00 00 00 00 00 00 00 00 00 00 00 00 00 00 ...  returns 0x00 (0001ms, 0417ms total)
T0B6C 000:516 JLINK_ReadMemU32(0xE000ED00, 0x0001 Items, ...) -- CPU is running -- CPU_ReadMem(4 bytes @ 0xE000ED00) - Data: 31 C2 1F 41  returns 0x01 (0000ms, 0417ms total)
T0B6C 000:516 JLINK_SetResetType(JLINKARM_CM3_RESET_TYPE_NORMAL)  returns JLINKARM_CM3_RESET_TYPE_NORMAL (0000ms, 0417ms total)
T0B6C 000:516 JLINK_Reset() -- CPU is running -- CPU_WriteMem(4 bytes @ 0xE000EDF0) -- CPU is running -- CPU_WriteMem(4 bytes @ 0xE000EDFC) >0x35 TIF> -- CPU is running -- CPU_WriteMem(4 bytes @ 0xE000ED0C) -- CPU is running -- CPU_ReadMem(4 bytes @ 0xE000EDF0) -- CPU is running -- CPU_ReadMem(4 bytes @ 0xE000EDF0) -- CPU is running -- CPU_WriteMem(4 bytes @ 0xE000EDF0) -- CPU is running -- CPU_WriteMem(4 bytes @ 0xE000EDFC) -- CPU is running -- CPU_ReadMem(4 bytes @ 0xE000EDF0)
 -- CPU_WriteMem(4 bytes @ 0xE0002000) -- CPU_ReadMem(4 bytes @ 0xE000EDFC) -- CPU_ReadMem(4 bytes @ 0xE0001000) (0018ms, 0435ms total)
T0B6C 000:535 JLINK_Halt()  returns 0x00 (0000ms, 0436ms total)
T0B6C 000:535 JLINK_IsHalted()  returns TRUE (0000ms, 0436ms total)
T0B6C 000:535 JLINK_ReadMemU32(0xE000EDF0, 0x0001 Items, ...) -- CPU_ReadMem(4 bytes @ 0xE000EDF0) - Data: 03 00 03 00  returns 0x01 (0000ms, 0436ms total)
T0B6C 000:535 JLINK_WriteU32(0xE000EDF0, 0xA05F0003) -- CPU_WriteMem(4 bytes @ 0xE000EDF0)  returns 0x00 (0001ms, 0437ms total)
T0B6C 000:536 JLINK_WriteU32(0xE000EDFC, 0x01000000) -- CPU_WriteMem(4 bytes @ 0xE000EDFC)  returns 0x00 (0000ms, 0437ms total)
T0B6C 000:562 JLINK_GetHWStatus(...)  returns 0x00 (0000ms, 0437ms total)
T0B6C 000:582 JLINK_GetNumBPUnits(Type = 0xFFFFFF00)  returns 0x06 (0000ms, 0437ms total)
T0B6C 000:582 JLINK_GetNumBPUnits(Type = 0xF0)  returns 0x2000 (0000ms, 0437ms total)
T0B6C 000:582 JLINK_GetNumWPUnits()  returns 0x04 (0000ms, 0437ms total)
T0B6C 000:602 JLINK_GetSpeed()  returns 0xFA0 (0000ms, 0437ms total)
T0B6C 000:615 JLINK_ReadMemU32(0xE000E004, 0x0001 Items, ...) -- CPU_ReadMem(4 bytes @ 0xE000E004) - Data: 01 00 00 00  returns 0x01 (0001ms, 0438ms total)
T0B6C 000:616 JLINK_ReadMemU32(0xE000E004, 0x0001 Items, ...) -- CPU_ReadMem(4 bytes @ 0xE000E004) - Data: 01 00 00 00  returns 0x01 (0000ms, 0438ms total)
T0B6C 000:616 JLINK_WriteMem(0xE0001000, 0x001C Bytes, ...) - Data: 01 00 00 00 00 00 00 00 00 00 00 00 00 00 00 00 ... -- CPU_WriteMem(28 bytes @ 0xE0001000)  returns 0x1C (0001ms, 0439ms total)
T0B6C 000:617 JLINK_ReadMem (0xE0001000, 0x001C Bytes, ...) -- CPU_ReadMem(28 bytes @ 0xE0001000) - Data: 01 00 00 40 00 00 00 00 00 00 00 00 00 00 00 00 ...  returns 0x00 (0001ms, 0440ms total)
T0B6C 000:618 JLINK_Halt()  returns 0x00 (0000ms, 0440ms total)
T0B6C 000:618 JLINK_IsHalted()  returns TRUE (0000ms, 0440ms total)
T0B6C 000:623 JLINK_WriteMem(0x20000000, 0x0164 Bytes, ...) - Data: 00 BE 0A E0 0D 78 2D 06 68 40 08 24 40 00 00 D3 ... -- CPU_WriteMem(356 bytes @ 0x20000000)  returns 0x164 (0005ms, 0445ms total)
T0B6C 000:628 JLINK_WriteReg(R0, 0x08000000)  returns 0x00 (0000ms, 0445ms total)
T0B6C 000:628 JLINK_WriteReg(R1, 0x007A1200)  returns 0x00 (0000ms, 0445ms total)
T0B6C 000:628 JLINK_WriteReg(R2, 0x00000001)  returns 0x00 (0000ms, 0445ms total)
T0B6C 000:628 JLINK_WriteReg(R3, 0x00000000)  returns 0x00 (0000ms, 0445ms total)
T0B6C 000:628 JLINK_WriteReg(R4, 0x00000000)  returns 0x00 (0000ms, 0445ms total)
T0B6C 000:628 JLINK_WriteReg(R5, 0x00000000)  returns 0x00 (0000ms, 0445ms total)
T0B6C 000:628 JLINK_WriteReg(R6, 0x00000000)  returns 0x00 (0000ms, 0445ms total)
T0B6C 000:628 JLINK_WriteReg(R7, 0x00000000)  returns 0x00 (0000ms, 0445ms total)
T0B6C 000:628 JLINK_WriteReg(R8, 0x00000000)  returns 0x00 (0000ms, 0445ms total)
T0B6C 000:628 JLINK_WriteReg(R9, 0x20000160)  returns 0x00 (0000ms, 0445ms total)
T0B6C 000:628 JLINK_WriteReg(R10, 0x00000000)  returns 0x00 (0000ms, 0445ms total)
T0B6C 000:628 JLINK_WriteReg(R11, 0x00000000)  returns 0x00 (0000ms, 0445ms total)
T0B6C 000:628 JLINK_WriteReg(R12, 0x00000000)  returns 0x00 (0000ms, 0445ms total)
T0B6C 000:628 JLINK_WriteReg(R13 (SP), 0x20001000)  returns 0x00 (0000ms, 0445ms total)
T0B6C 000:628 JLINK_WriteReg(R14, 0x20000001)  returns 0x00 (0000ms, 0445ms total)
T0B6C 000:628 JLINK_WriteReg(R15 (PC), 0x20000038)  returns 0x00 (0000ms, 0445ms total)
T0B6C 000:628 JLINK_WriteReg(XPSR, 0x01000000)  returns 0x00 (0000ms, 0445ms total)
T0B6C 000:628 JLINK_WriteReg(MSP, 0x20001000)  returns 0x00 (0000ms, 0445ms total)
T0B6C 000:628 JLINK_WriteReg(PSP, 0x20001000)  returns 0x00 (0000ms, 0445ms total)
T0B6C 000:628 JLINK_WriteReg(CFBP, 0x00000000)  returns 0x00 (0000ms, 0445ms total)
T0B6C 000:628 JLINK_SetBPEx(Addr = 0x20000000, Type = 0xFFFFFFF2) -- CPU_ReadMem(2 bytes @ 0x20000000)  returns 0x00000001 (0001ms, 0446ms total)
T0B6C 000:629 JLINK_Go() -- CPU_WriteMem(2 bytes @ 0x20000000) -- CPU_ReadMem(4 bytes @ 0xE0001000) -- CPU_WriteMem(4 bytes @ 0xE0002008) -- CPU_WriteMem(4 bytes @ 0xE000200C) -- CPU_WriteMem(4 bytes @ 0xE0002010) -- CPU_WriteMem(4 bytes @ 0xE0002014) -- CPU_WriteMem(4 bytes @ 0xE0002018) -- CPU_WriteMem(4 bytes @ 0xE000201C) -- CPU_WriteMem(4 bytes @ 0xE0001004) (0006ms, 0452ms total)
T0B6C 000:635 JLINK_IsHalted() -- CPU_ReadMem(2 bytes @ 0x20000000)  returns TRUE (0004ms, 0456ms total)
T0B6C 000:639 JLINK_ReadReg(R15 (PC))  returns 0x20000000 (0000ms, 0452ms total)
T0B6C 000:639 JLINK_ClrBPEx(BPHandle = 0x00000001)  returns 0x00 (0000ms, 0452ms total)
T0B6C 000:639 JLINK_ReadReg(R0)  returns 0x00000000 (0000ms, 0452ms total)
T0B6C 000:640 JLINK_WriteReg(R0, 0x08000000)  returns 0x00 (0000ms, 0452ms total)
T0B6C 000:640 JLINK_WriteReg(R1, 0x007A1200)  returns 0x00 (0000ms, 0452ms total)
T0B6C 000:640 JLINK_WriteReg(R2, 0x00000001)  returns 0x00 (0000ms, 0452ms total)
T0B6C 000:640 JLINK_WriteReg(R3, 0x00000000)  returns 0x00 (0000ms, 0452ms total)
T0B6C 000:640 JLINK_WriteReg(R4, 0x00000000)  returns 0x00 (0000ms, 0452ms total)
T0B6C 000:640 JLINK_WriteReg(R5, 0x00000000)  returns 0x00 (0000ms, 0452ms total)
T0B6C 000:640 JLINK_WriteReg(R6, 0x00000000)  returns 0x00 (0000ms, 0452ms total)
T0B6C 000:640 JLINK_WriteReg(R7, 0x00000000)  returns 0x00 (0000ms, 0452ms total)
T0B6C 000:640 JLINK_WriteReg(R8, 0x00000000)  returns 0x00 (0000ms, 0452ms total)
T0B6C 000:640 JLINK_WriteReg(R9, 0x20000160)  returns 0x00 (0000ms, 0452ms total)
T0B6C 000:640 JLINK_WriteReg(R10, 0x00000000)  returns 0x00 (0000ms, 0452ms total)
T0B6C 000:640 JLINK_WriteReg(R11, 0x00000000)  returns 0x00 (0000ms, 0452ms total)
T0B6C 000:640 JLINK_WriteReg(R12, 0x00000000)  returns 0x00 (0000ms, 0452ms total)
T0B6C 000:640 JLINK_WriteReg(R13 (SP), 0x20001000)  returns 0x00 (0000ms, 0452ms total)
T0B6C 000:640 JLINK_WriteReg(R14, 0x20000001)  returns 0x00 (0000ms, 0452ms total)
T0B6C 000:640 JLINK_WriteReg(R15 (PC), 0x2000007C)  returns 0x00 (0000ms, 0452ms total)
T0B6C 000:640 JLINK_WriteReg(XPSR, 0x01000000)  returns 0x00 (0000ms, 0452ms total)
T0B6C 000:640 JLINK_WriteReg(MSP, 0x20001000)  returns 0x00 (0000ms, 0452ms total)
T0B6C 000:640 JLINK_WriteReg(PSP, 0x20001000)  returns 0x00 (0000ms, 0452ms total)
T0B6C 000:640 JLINK_WriteReg(CFBP, 0x00000000)  returns 0x00 (0000ms, 0452ms total)
T0B6C 000:640 JLINK_SetBPEx(Addr = 0x20000000, Type = 0xFFFFFFF2)  returns 0x00000002 (0000ms, 0452ms total)
T0B6C 000:640 JLINK_Go() -- CPU_ReadMem(4 bytes @ 0xE0001000) (0002ms, 0454ms total)
T0B6C 000:642 JLINK_IsHalted()  returns FALSE (0001ms, 0455ms total)
T0B6C 000:702 JLINK_IsHalted() -- CPU_ReadMem(2 bytes @ 0x20000000)  returns TRUE (0003ms, 0457ms total)
T0B6C 000:705 JLINK_ReadReg(R15 (PC))  returns 0x20000000 (0000ms, 0454ms total)
T0B6C 000:705 JLINK_ClrBPEx(BPHandle = 0x00000002)  returns 0x00 (0000ms, 0454ms total)
T0B6C 000:705 JLINK_ReadReg(R0)  returns 0x00000000 (0000ms, 0454ms total)
T0B6C 000:760 JLINK_WriteReg(R0, 0x00000001)  returns 0x00 (0000ms, 0454ms total)
T0B6C 000:760 JLINK_WriteReg(R1, 0x007A1200)  returns 0x00 (0000ms, 0454ms total)
T0B6C 000:760 JLINK_WriteReg(R2, 0x00000001)  returns 0x00 (0000ms, 0454ms total)
T0B6C 000:760 JLINK_WriteReg(R3, 0x00000000)  returns 0x00 (0000ms, 0454ms total)
T0B6C 000:760 JLINK_WriteReg(R4, 0x00000000)  returns 0x00 (0000ms, 0454ms total)
T0B6C 000:760 JLINK_WriteReg(R5, 0x00000000)  returns 0x00 (0000ms, 0454ms total)
T0B6C 000:760 JLINK_WriteReg(R6, 0x00000000)  returns 0x00 (0000ms, 0454ms total)
T0B6C 000:760 JLINK_WriteReg(R7, 0x00000000)  returns 0x00 (0000ms, 0454ms total)
T0B6C 000:760 JLINK_WriteReg(R8, 0x00000000)  returns 0x00 (0000ms, 0454ms total)
T0B6C 000:760 JLINK_WriteReg(R9, 0x20000160)  returns 0x00 (0000ms, 0454ms total)
T0B6C 000:760 JLINK_WriteReg(R10, 0x00000000)  returns 0x00 (0000ms, 0454ms total)
T0B6C 000:760 JLINK_WriteReg(R11, 0x00000000)  returns 0x00 (0001ms, 0455ms total)
T0B6C 000:761 JLINK_WriteReg(R12, 0x00000000)  returns 0x00 (0000ms, 0455ms total)
T0B6C 000:761 JLINK_WriteReg(R13 (SP), 0x20001000)  returns 0x00 (0000ms, 0455ms total)
T0B6C 000:761 JLINK_WriteReg(R14, 0x20000001)  returns 0x00 (0000ms, 0455ms total)
T0B6C 000:761 JLINK_WriteReg(R15 (PC), 0x2000006A)  returns 0x00 (0000ms, 0455ms total)
T0B6C 000:761 JLINK_WriteReg(XPSR, 0x01000000)  returns 0x00 (0000ms, 0455ms total)
T0B6C 000:761 JLINK_WriteReg(MSP, 0x20001000)  returns 0x00 (0000ms, 0455ms total)
T0B6C 000:761 JLINK_WriteReg(PSP, 0x20001000)  returns 0x00 (0000ms, 0455ms total)
T0B6C 000:761 JLINK_WriteReg(CFBP, 0x00000000)  returns 0x00 (0000ms, 0455ms total)
T0B6C 000:761 JLINK_SetBPEx(Addr = 0x20000000, Type = 0xFFFFFFF2)  returns 0x00000003 (0000ms, 0455ms total)
T0B6C 000:761 JLINK_Go() -- CPU_ReadMem(4 bytes @ 0xE0001000) (0002ms, 0457ms total)
T0B6C 000:763 JLINK_IsHalted() -- CPU_ReadMem(2 bytes @ 0x20000000)  returns TRUE (0003ms, 0460ms total)
T0B6C 000:766 JLINK_ReadReg(R15 (PC))  returns 0x20000000 (0000ms, 0457ms total)
T0B6C 000:766 JLINK_ClrBPEx(BPHandle = 0x00000003)  returns 0x00 (0000ms, 0457ms total)
T0B6C 000:766 JLINK_ReadReg(R0)  returns 0x00000000 (0000ms, 0457ms total)
T0B6C 000:796 JLINK_WriteMem(0x20000000, 0x0164 Bytes, ...) - Data: 00 BE 0A E0 0D 78 2D 06 68 40 08 24 40 00 00 D3 ... -- CPU_WriteMem(356 bytes @ 0x20000000)  returns 0x164 (0005ms, 0462ms total)
T0B6C 000:801 JLINK_WriteReg(R0, 0x08000000)  returns 0x00 (0000ms, 0462ms total)
T0B6C 000:801 JLINK_WriteReg(R1, 0x007A1200)  returns 0x00 (0000ms, 0462ms total)
T0B6C 000:801 JLINK_WriteReg(R2, 0x00000002)  returns 0x00 (0000ms, 0462ms total)
T0B6C 000:801 JLINK_WriteReg(R3, 0x00000000)  returns 0x00 (0000ms, 0462ms total)
T0B6C 000:801 JLINK_WriteReg(R4, 0x00000000)  returns 0x00 (0000ms, 0462ms total)
T0B6C 000:801 JLINK_WriteReg(R5, 0x00000000)  returns 0x00 (0000ms, 0462ms total)
T0B6C 000:801 JLINK_WriteReg(R6, 0x00000000)  returns 0x00 (0000ms, 0462ms total)
T0B6C 000:801 JLINK_WriteReg(R7, 0x00000000)  returns 0x00 (0000ms, 0462ms total)
T0B6C 000:801 JLINK_WriteReg(R8, 0x00000000)  returns 0x00 (0001ms, 0463ms total)
T0B6C 000:802 JLINK_WriteReg(R9, 0x20000160)  returns 0x00 (0000ms, 0463ms total)
T0B6C 000:802 JLINK_WriteReg(R10, 0x00000000)  returns 0x00 (0000ms, 0463ms total)
T0B6C 000:802 JLINK_WriteReg(R11, 0x00000000)  returns 0x00 (0000ms, 0463ms total)
T0B6C 000:802 JLINK_WriteReg(R12, 0x00000000)  returns 0x00 (0000ms, 0463ms total)
T0B6C 000:802 JLINK_WriteReg(R13 (SP), 0x20001000)  returns 0x00 (0000ms, 0463ms total)
T0B6C 000:802 JLINK_WriteReg(R14, 0x20000001)  returns 0x00 (0000ms, 0463ms total)
T0B6C 000:802 JLINK_WriteReg(R15 (PC), 0x20000038)  returns 0x00 (0000ms, 0463ms total)
T0B6C 000:802 JLINK_WriteReg(XPSR, 0x01000000)  returns 0x00 (0000ms, 0463ms total)
T0B6C 000:802 JLINK_WriteReg(MSP, 0x20001000)  returns 0x00 (0000ms, 0463ms total)
T0B6C 000:802 JLINK_WriteReg(PSP, 0x20001000)  returns 0x00 (0000ms, 0463ms total)
T0B6C 000:802 JLINK_WriteReg(CFBP, 0x00000000)  returns 0x00 (0000ms, 0463ms total)
T0B6C 000:802 JLINK_SetBPEx(Addr = 0x20000000, Type = 0xFFFFFFF2) -- CPU_ReadMem(2 bytes @ 0x20000000)  returns 0x00000004 (0000ms, 0463ms total)
T0B6C 000:802 JLINK_Go() -- CPU_WriteMem(2 bytes @ 0x20000000) -- CPU_ReadMem(4 bytes @ 0xE0001000) (0003ms, 0466ms total)
T0B6C 000:805 JLINK_IsHalted() -- CPU_ReadMem(2 bytes @ 0x20000000)  returns TRUE (0003ms, 0469ms total)
T0B6C 000:808 JLINK_ReadReg(R15 (PC))  returns 0x20000000 (0000ms, 0466ms total)
T0B6C 000:808 JLINK_ClrBPEx(BPHandle = 0x00000004)  returns 0x00 (0000ms, 0466ms total)
T0B6C 000:808 JLINK_ReadReg(R0)  returns 0x00000000 (0000ms, 0466ms total)
T0B6C 000:811 JLINK_WriteMem(0x20000164, 0x0400 Bytes, ...) - Data: 50 92 00 20 45 01 00 08 7D 54 00 08 61 4D 00 08 ... -- CPU_WriteMem(1024 bytes @ 0x20000164)  returns 0x400 (0012ms, 0478ms total)
T0B6C 000:823 JLINK_WriteReg(R0, 0x08000000)  returns 0x00 (0000ms, 0478ms total)
T0B6C 000:823 JLINK_WriteReg(R1, 0x00000400)  returns 0x00 (0000ms, 0478ms total)
T0B6C 000:823 JLINK_WriteReg(R2, 0x20000164)  returns 0x00 (0000ms, 0478ms total)
T0B6C 000:823 JLINK_WriteReg(R3, 0x00000000)  returns 0x00 (0000ms, 0478ms total)
T0B6C 000:823 JLINK_WriteReg(R4, 0x00000000)  returns 0x00 (0000ms, 0478ms total)
T0B6C 000:823 JLINK_WriteReg(R5, 0x00000000)  returns 0x00 (0000ms, 0478ms total)
T0B6C 000:823 JLINK_WriteReg(R6, 0x00000000)  returns 0x00 (0000ms, 0478ms total)
T0B6C 000:823 JLINK_WriteReg(R7, 0x00000000)  returns 0x00 (0000ms, 0478ms total)
T0B6C 000:823 JLINK_WriteReg(R8, 0x00000000)  returns 0x00 (0000ms, 0478ms total)
T0B6C 000:823 JLINK_WriteReg(R9, 0x20000160)  returns 0x00 (0000ms, 0478ms total)
T0B6C 000:823 JLINK_WriteReg(R10, 0x00000000)  returns 0x00 (0000ms, 0478ms total)
T0B6C 000:823 JLINK_WriteReg(R11, 0x00000000)  returns 0x00 (0001ms, 0479ms total)
T0B6C 000:824 JLINK_WriteReg(R12, 0x00000000)  returns 0x00 (0000ms, 0479ms total)
T0B6C 000:824 JLINK_WriteReg(R13 (SP), 0x20001000)  returns 0x00 (0000ms, 0479ms total)
T0B6C 000:824 JLINK_WriteReg(R14, 0x20000001)  returns 0x00 (0000ms, 0479ms total)
T0B6C 000:824 JLINK_WriteReg(R15 (PC), 0x200000F4)  returns 0x00 (0000ms, 0479ms total)
T0B6C 000:824 JLINK_WriteReg(XPSR, 0x01000000)  returns 0x00 (0000ms, 0479ms total)
T0B6C 000:824 JLINK_WriteReg(MSP, 0x20001000)  returns 0x00 (0000ms, 0479ms total)
T0B6C 000:824 JLINK_WriteReg(PSP, 0x20001000)  returns 0x00 (0000ms, 0479ms total)
T0B6C 000:824 JLINK_WriteReg(CFBP, 0x00000000)  returns 0x00 (0000ms, 0479ms total)
T0B6C 000:824 JLINK_SetBPEx(Addr = 0x20000000, Type = 0xFFFFFFF2)  returns 0x00000005 (0000ms, 0479ms total)
T0B6C 000:824 JLINK_Go() -- CPU_ReadMem(4 bytes @ 0xE0001000) (0002ms, 0481ms total)
T0B6C 000:826 JLINK_IsHalted()  returns FALSE (0000ms, 0481ms total)
T0B6C 000:841 JLINK_IsHalted()  returns FALSE (0000ms, 0481ms total)
T0B6C 000:845 JLINK_IsHalted()  returns FALSE (0000ms, 0481ms total)
T0B6C 000:848 JLINK_IsHalted()  returns FALSE (0000ms, 0481ms total)
T0B6C 000:850 JLINK_IsHalted()  returns FALSE (0000ms, 0481ms total)
T0B6C 000:852 JLINK_IsHalted()  returns FALSE (0000ms, 0481ms total)
T0B6C 000:854 JLINK_IsHalted()  returns FALSE (0000ms, 0481ms total)
T0B6C 000:856 JLINK_IsHalted()  returns FALSE (0000ms, 0481ms total)
T0B6C 000:859 JLINK_IsHalted() -- CPU_ReadMem(2 bytes @ 0x20000000)  returns TRUE (0003ms, 0484ms total)
T0B6C 000:862 JLINK_ReadReg(R15 (PC))  returns 0x20000000 (0000ms, 0481ms total)
T0B6C 000:862 JLINK_ClrBPEx(BPHandle = 0x00000005)  returns 0x00 (0000ms, 0481ms total)
T0B6C 000:862 JLINK_ReadReg(R0)  returns 0x00000000 (0000ms, 0481ms total)
T0B6C 000:863 JLINK_WriteMem(0x20000164, 0x0400 Bytes, ...) - Data: 02 E0 01 E0 00 E0 FF E7 00 20 04 B0 70 47 00 00 ... -- CPU_WriteMem(1024 bytes @ 0x20000164)  returns 0x400 (0012ms, 0493ms total)
T0B6C 000:875 JLINK_WriteReg(R0, 0x08000400)  returns 0x00 (0000ms, 0493ms total)
T0B6C 000:875 JLINK_WriteReg(R1, 0x00000400)  returns 0x00 (0000ms, 0493ms total)
T0B6C 000:875 JLINK_WriteReg(R2, 0x20000164)  returns 0x00 (0000ms, 0493ms total)
T0B6C 000:875 JLINK_WriteReg(R3, 0x00000000)  returns 0x00 (0000ms, 0493ms total)
T0B6C 000:875 JLINK_WriteReg(R4, 0x00000000)  returns 0x00 (0000ms, 0493ms total)
T0B6C 000:875 JLINK_WriteReg(R5, 0x00000000)  returns 0x00 (0000ms, 0493ms total)
T0B6C 000:875 JLINK_WriteReg(R6, 0x00000000)  returns 0x00 (0000ms, 0493ms total)
T0B6C 000:875 JLINK_WriteReg(R7, 0x00000000)  returns 0x00 (0000ms, 0493ms total)
T0B6C 000:875 JLINK_WriteReg(R8, 0x00000000)  returns 0x00 (0001ms, 0494ms total)
T0B6C 000:876 JLINK_WriteReg(R9, 0x20000160)  returns 0x00 (0000ms, 0494ms total)
T0B6C 000:876 JLINK_WriteReg(R10, 0x00000000)  returns 0x00 (0000ms, 0494ms total)
T0B6C 000:876 JLINK_WriteReg(R11, 0x00000000)  returns 0x00 (0000ms, 0494ms total)
T0B6C 000:876 JLINK_WriteReg(R12, 0x00000000)  returns 0x00 (0000ms, 0494ms total)
T0B6C 000:876 JLINK_WriteReg(R13 (SP), 0x20001000)  returns 0x00 (0000ms, 0494ms total)
T0B6C 000:876 JLINK_WriteReg(R14, 0x20000001)  returns 0x00 (0000ms, 0494ms total)
T0B6C 000:876 JLINK_WriteReg(R15 (PC), 0x200000F4)  returns 0x00 (0000ms, 0494ms total)
T0B6C 000:876 JLINK_WriteReg(XPSR, 0x01000000)  returns 0x00 (0000ms, 0494ms total)
T0B6C 000:876 JLINK_WriteReg(MSP, 0x20001000)  returns 0x00 (0000ms, 0494ms total)
T0B6C 000:876 JLINK_WriteReg(PSP, 0x20001000)  returns 0x00 (0000ms, 0494ms total)
T0B6C 000:876 JLINK_WriteReg(CFBP, 0x00000000)  returns 0x00 (0000ms, 0494ms total)
T0B6C 000:876 JLINK_SetBPEx(Addr = 0x20000000, Type = 0xFFFFFFF2)  returns 0x00000006 (0000ms, 0494ms total)
T0B6C 000:876 JLINK_Go() -- CPU_ReadMem(4 bytes @ 0xE0001000) (0002ms, 0496ms total)
T0B6C 000:878 JLINK_IsHalted()  returns FALSE (0000ms, 0496ms total)
T0B6C 000:881 JLINK_IsHalted()  returns FALSE (0000ms, 0496ms total)
T0B6C 000:883 JLINK_IsHalted()  returns FALSE (0000ms, 0496ms total)
T0B6C 000:885 JLINK_IsHalted()  returns FALSE (0000ms, 0496ms total)
T0B6C 000:887 JLINK_IsHalted()  returns FALSE (0000ms, 0496ms total)
T0B6C 000:889 JLINK_IsHalted()  returns FALSE (0000ms, 0496ms total)
T0B6C 000:891 JLINK_IsHalted()  returns FALSE (0000ms, 0496ms total)
T0B6C 000:893 JLINK_IsHalted()  returns FALSE (0000ms, 0496ms total)
T0B6C 000:895 JLINK_IsHalted()  returns FALSE (0000ms, 0496ms total)
T0B6C 000:897 JLINK_IsHalted()  returns FALSE (0000ms, 0496ms total)
T0B6C 000:899 JLINK_IsHalted()  returns FALSE (0000ms, 0496ms total)
T0B6C 000:901 JLINK_IsHalted()  returns FALSE (0000ms, 0496ms total)
T0B6C 000:903 JLINK_IsHalted()  returns FALSE (0000ms, 0496ms total)
T0B6C 000:905 JLINK_IsHalted()  returns FALSE (0000ms, 0496ms total)
T0B6C 000:907 JLINK_IsHalted()  returns FALSE (0001ms, 0497ms total)
T0B6C 000:910 JLINK_IsHalted() -- CPU_ReadMem(2 bytes @ 0x20000000)  returns TRUE (0003ms, 0499ms total)
T0B6C 000:913 JLINK_ReadReg(R15 (PC))  returns 0x20000000 (0000ms, 0496ms total)
T0B6C 000:913 JLINK_ClrBPEx(BPHandle = 0x00000006)  returns 0x00 (0000ms, 0496ms total)
T0B6C 000:913 JLINK_ReadReg(R0)  returns 0x00000000 (0000ms, 0496ms total)
T0B6C 000:914 JLINK_WriteMem(0x20000164, 0x0400 Bytes, ...) - Data: 26 90 77 E0 2B 98 00 68 44 21 C4 F2 02 01 88 42 ... -- CPU_WriteMem(1024 bytes @ 0x20000164)  returns 0x400 (0012ms, 0508ms total)
T0B6C 000:926 JLINK_WriteReg(R0, 0x08000800)  returns 0x00 (0000ms, 0508ms total)
T0B6C 000:927 JLINK_WriteReg(R1, 0x00000400)  returns 0x00 (0000ms, 0509ms total)
T0B6C 000:927 JLINK_WriteReg(R2, 0x20000164)  returns 0x00 (0000ms, 0509ms total)
T0B6C 000:927 JLINK_WriteReg(R3, 0x00000000)  returns 0x00 (0000ms, 0509ms total)
T0B6C 000:927 JLINK_WriteReg(R4, 0x00000000)  returns 0x00 (0000ms, 0509ms total)
T0B6C 000:927 JLINK_WriteReg(R5, 0x00000000)  returns 0x00 (0000ms, 0509ms total)
T0B6C 000:927 JLINK_WriteReg(R6, 0x00000000)  returns 0x00 (0000ms, 0509ms total)
T0B6C 000:927 JLINK_WriteReg(R7, 0x00000000)  returns 0x00 (0000ms, 0509ms total)
T0B6C 000:927 JLINK_WriteReg(R8, 0x00000000)  returns 0x00 (0000ms, 0509ms total)
T0B6C 000:927 JLINK_WriteReg(R9, 0x20000160)  returns 0x00 (0000ms, 0509ms total)
T0B6C 000:927 JLINK_WriteReg(R10, 0x00000000)  returns 0x00 (0000ms, 0509ms total)
T0B6C 000:927 JLINK_WriteReg(R11, 0x00000000)  returns 0x00 (0000ms, 0509ms total)
T0B6C 000:927 JLINK_WriteReg(R12, 0x00000000)  returns 0x00 (0000ms, 0509ms total)
T0B6C 000:927 JLINK_WriteReg(R13 (SP), 0x20001000)  returns 0x00 (0000ms, 0509ms total)
T0B6C 000:927 JLINK_WriteReg(R14, 0x20000001)  returns 0x00 (0000ms, 0509ms total)
T0B6C 000:927 JLINK_WriteReg(R15 (PC), 0x200000F4)  returns 0x00 (0000ms, 0509ms total)
T0B6C 000:927 JLINK_WriteReg(XPSR, 0x01000000)  returns 0x00 (0000ms, 0509ms total)
T0B6C 000:927 JLINK_WriteReg(MSP, 0x20001000)  returns 0x00 (0000ms, 0509ms total)
T0B6C 000:927 JLINK_WriteReg(PSP, 0x20001000)  returns 0x00 (0000ms, 0509ms total)
T0B6C 000:927 JLINK_WriteReg(CFBP, 0x00000000)  returns 0x00 (0000ms, 0509ms total)
T0B6C 000:927 JLINK_SetBPEx(Addr = 0x20000000, Type = 0xFFFFFFF2)  returns 0x00000007 (0000ms, 0509ms total)
T0B6C 000:927 JLINK_Go() -- CPU_ReadMem(4 bytes @ 0xE0001000) (0002ms, 0511ms total)
T0B6C 000:929 JLINK_IsHalted()  returns FALSE (0001ms, 0512ms total)
T0B6C 000:932 JLINK_IsHalted()  returns FALSE (0000ms, 0511ms total)
T0B6C 000:934 JLINK_IsHalted()  returns FALSE (0000ms, 0511ms total)
T0B6C 000:936 JLINK_IsHalted()  returns FALSE (0000ms, 0511ms total)
T0B6C 000:938 JLINK_IsHalted()  returns FALSE (0000ms, 0511ms total)
T0B6C 000:943 JLINK_IsHalted()  returns FALSE (0000ms, 0511ms total)
T0B6C 000:945 JLINK_IsHalted()  returns FALSE (0000ms, 0511ms total)
T0B6C 000:947 JLINK_IsHalted()  returns FALSE (0000ms, 0511ms total)
T0B6C 000:949 JLINK_IsHalted()  returns FALSE (0000ms, 0511ms total)
T0B6C 000:951 JLINK_IsHalted()  returns FALSE (0000ms, 0511ms total)
T0B6C 000:953 JLINK_IsHalted()  returns FALSE (0000ms, 0511ms total)
T0B6C 000:955 JLINK_IsHalted()  returns FALSE (0000ms, 0511ms total)
T0B6C 000:960 JLINK_IsHalted()  returns FALSE (0000ms, 0511ms total)
T0B6C 000:962 JLINK_IsHalted() -- CPU_ReadMem(2 bytes @ 0x20000000)  returns TRUE (0003ms, 0514ms total)
T0B6C 000:965 JLINK_ReadReg(R15 (PC))  returns 0x20000000 (0000ms, 0511ms total)
T0B6C 000:965 JLINK_ClrBPEx(BPHandle = 0x00000007)  returns 0x00 (0000ms, 0511ms total)
T0B6C 000:965 JLINK_ReadReg(R0)  returns 0x00000000 (0000ms, 0511ms total)
T0B6C 000:966 JLINK_WriteMem(0x20000164, 0x0400 Bytes, ...) - Data: FF E7 14 98 40 F2 04 41 C4 F2 02 01 08 60 A5 E0 ... -- CPU_WriteMem(1024 bytes @ 0x20000164)  returns 0x400 (0012ms, 0523ms total)
T0B6C 000:978 JLINK_WriteReg(R0, 0x08000C00)  returns 0x00 (0000ms, 0523ms total)
T0B6C 000:978 JLINK_WriteReg(R1, 0x00000400)  returns 0x00 (0000ms, 0523ms total)
T0B6C 000:978 JLINK_WriteReg(R2, 0x20000164)  returns 0x00 (0000ms, 0523ms total)
T0B6C 000:978 JLINK_WriteReg(R3, 0x00000000)  returns 0x00 (0000ms, 0523ms total)
T0B6C 000:978 JLINK_WriteReg(R4, 0x00000000)  returns 0x00 (0000ms, 0523ms total)
T0B6C 000:978 JLINK_WriteReg(R5, 0x00000000)  returns 0x00 (0000ms, 0523ms total)
T0B6C 000:978 JLINK_WriteReg(R6, 0x00000000)  returns 0x00 (0000ms, 0523ms total)
T0B6C 000:978 JLINK_WriteReg(R7, 0x00000000)  returns 0x00 (0000ms, 0523ms total)
T0B6C 000:978 JLINK_WriteReg(R8, 0x00000000)  returns 0x00 (0000ms, 0523ms total)
T0B6C 000:978 JLINK_WriteReg(R9, 0x20000160)  returns 0x00 (0000ms, 0523ms total)
T0B6C 000:978 JLINK_WriteReg(R10, 0x00000000)  returns 0x00 (0001ms, 0524ms total)
T0B6C 000:979 JLINK_WriteReg(R11, 0x00000000)  returns 0x00 (0000ms, 0524ms total)
T0B6C 000:979 JLINK_WriteReg(R12, 0x00000000)  returns 0x00 (0000ms, 0524ms total)
T0B6C 000:979 JLINK_WriteReg(R13 (SP), 0x20001000)  returns 0x00 (0000ms, 0524ms total)
T0B6C 000:979 JLINK_WriteReg(R14, 0x20000001)  returns 0x00 (0000ms, 0524ms total)
T0B6C 000:979 JLINK_WriteReg(R15 (PC), 0x200000F4)  returns 0x00 (0000ms, 0524ms total)
T0B6C 000:979 JLINK_WriteReg(XPSR, 0x01000000)  returns 0x00 (0000ms, 0524ms total)
T0B6C 000:979 JLINK_WriteReg(MSP, 0x20001000)  returns 0x00 (0000ms, 0524ms total)
T0B6C 000:979 JLINK_WriteReg(PSP, 0x20001000)  returns 0x00 (0000ms, 0524ms total)
T0B6C 000:979 JLINK_WriteReg(CFBP, 0x00000000)  returns 0x00 (0000ms, 0524ms total)
T0B6C 000:979 JLINK_SetBPEx(Addr = 0x20000000, Type = 0xFFFFFFF2)  returns 0x00000008 (0000ms, 0524ms total)
T0B6C 000:979 JLINK_Go() -- CPU_ReadMem(4 bytes @ 0xE0001000) (0002ms, 0526ms total)
T0B6C 000:981 JLINK_IsHalted()  returns FALSE (0001ms, 0527ms total)
T0B6C 000:984 JLINK_IsHalted()  returns FALSE (0000ms, 0526ms total)
T0B6C 000:986 JLINK_IsHalted()  returns FALSE (0000ms, 0526ms total)
T0B6C 000:989 JLINK_IsHalted()  returns FALSE (0000ms, 0526ms total)
T0B6C 000:991 JLINK_IsHalted()  returns FALSE (0000ms, 0526ms total)
T0B6C 000:993 JLINK_IsHalted()  returns FALSE (0000ms, 0526ms total)
T0B6C 000:997 JLINK_IsHalted()  returns FALSE (0000ms, 0526ms total)
T0B6C 001:000 JLINK_IsHalted()  returns FALSE (0000ms, 0526ms total)
T0B6C 001:002 JLINK_IsHalted()  returns FALSE (0000ms, 0526ms total)
T0B6C 001:005 JLINK_IsHalted()  returns FALSE (0000ms, 0526ms total)
T0B6C 001:010 JLINK_IsHalted()  returns FALSE (0000ms, 0526ms total)
T0B6C 001:013 JLINK_IsHalted() -- CPU_ReadMem(2 bytes @ 0x20000000)  returns TRUE (0003ms, 0529ms total)
T0B6C 001:016 JLINK_ReadReg(R15 (PC))  returns 0x20000000 (0000ms, 0526ms total)
T0B6C 001:016 JLINK_ClrBPEx(BPHandle = 0x00000008)  returns 0x00 (0000ms, 0526ms total)
T0B6C 001:016 JLINK_ReadReg(R0)  returns 0x00000000 (0000ms, 0526ms total)
T0B6C 001:017 JLINK_WriteMem(0x20000164, 0x0400 Bytes, ...) - Data: FF E7 0F 99 01 20 88 40 0E 90 10 98 00 68 0E 99 ... -- CPU_WriteMem(1024 bytes @ 0x20000164)  returns 0x400 (0012ms, 0538ms total)
T0B6C 001:029 JLINK_WriteReg(R0, 0x08001000)  returns 0x00 (0000ms, 0538ms total)
T0B6C 001:029 JLINK_WriteReg(R1, 0x00000400)  returns 0x00 (0000ms, 0538ms total)
T0B6C 001:029 JLINK_WriteReg(R2, 0x20000164)  returns 0x00 (0000ms, 0538ms total)
T0B6C 001:029 JLINK_WriteReg(R3, 0x00000000)  returns 0x00 (0000ms, 0538ms total)
T0B6C 001:029 JLINK_WriteReg(R4, 0x00000000)  returns 0x00 (0000ms, 0538ms total)
T0B6C 001:029 JLINK_WriteReg(R5, 0x00000000)  returns 0x00 (0001ms, 0539ms total)
T0B6C 001:030 JLINK_WriteReg(R6, 0x00000000)  returns 0x00 (0000ms, 0539ms total)
T0B6C 001:030 JLINK_WriteReg(R7, 0x00000000)  returns 0x00 (0000ms, 0539ms total)
T0B6C 001:030 JLINK_WriteReg(R8, 0x00000000)  returns 0x00 (0000ms, 0539ms total)
T0B6C 001:030 JLINK_WriteReg(R9, 0x20000160)  returns 0x00 (0000ms, 0539ms total)
T0B6C 001:030 JLINK_WriteReg(R10, 0x00000000)  returns 0x00 (0000ms, 0539ms total)
T0B6C 001:030 JLINK_WriteReg(R11, 0x00000000)  returns 0x00 (0000ms, 0539ms total)
T0B6C 001:030 JLINK_WriteReg(R12, 0x00000000)  returns 0x00 (0000ms, 0539ms total)
T0B6C 001:030 JLINK_WriteReg(R13 (SP), 0x20001000)  returns 0x00 (0000ms, 0539ms total)
T0B6C 001:030 JLINK_WriteReg(R14, 0x20000001)  returns 0x00 (0000ms, 0539ms total)
T0B6C 001:030 JLINK_WriteReg(R15 (PC), 0x200000F4)  returns 0x00 (0000ms, 0539ms total)
T0B6C 001:030 JLINK_WriteReg(XPSR, 0x01000000)  returns 0x00 (0000ms, 0539ms total)
T0B6C 001:030 JLINK_WriteReg(MSP, 0x20001000)  returns 0x00 (0000ms, 0539ms total)
T0B6C 001:030 JLINK_WriteReg(PSP, 0x20001000)  returns 0x00 (0000ms, 0539ms total)
T0B6C 001:030 JLINK_WriteReg(CFBP, 0x00000000)  returns 0x00 (0000ms, 0539ms total)
T0B6C 001:030 JLINK_SetBPEx(Addr = 0x20000000, Type = 0xFFFFFFF2)  returns 0x00000009 (0000ms, 0539ms total)
T0B6C 001:030 JLINK_Go() -- CPU_ReadMem(4 bytes @ 0xE0001000) (0002ms, 0541ms total)
T0B6C 001:032 JLINK_IsHalted()  returns FALSE (0001ms, 0542ms total)
T0B6C 001:042 JLINK_IsHalted()  returns FALSE (0000ms, 0541ms total)
T0B6C 001:048 JLINK_IsHalted()  returns FALSE (0000ms, 0541ms total)
T0B6C 001:054 JLINK_IsHalted()  returns FALSE (0000ms, 0541ms total)
T0B6C 001:056 JLINK_IsHalted()  returns FALSE (0000ms, 0541ms total)
T0B6C 001:085 JLINK_IsHalted() -- CPU_ReadMem(2 bytes @ 0x20000000)  returns TRUE (0003ms, 0544ms total)
T0B6C 001:088 JLINK_ReadReg(R15 (PC))  returns 0x20000000 (0000ms, 0541ms total)
T0B6C 001:088 JLINK_ClrBPEx(BPHandle = 0x00000009)  returns 0x00 (0000ms, 0541ms total)
T0B6C 001:088 JLINK_ReadReg(R0)  returns 0x00000000 (0000ms, 0541ms total)
T0B6C 001:089 JLINK_WriteMem(0x20000164, 0x0400 Bytes, ...) - Data: 18 00 C4 F2 02 00 01 68 41 F4 00 51 01 60 00 68 ... -- CPU_WriteMem(1024 bytes @ 0x20000164)  returns 0x400 (0012ms, 0553ms total)
T0B6C 001:101 JLINK_WriteReg(R0, 0x08001400)  returns 0x00 (0000ms, 0553ms total)
T0B6C 001:101 JLINK_WriteReg(R1, 0x00000400)  returns 0x00 (0000ms, 0553ms total)
T0B6C 001:101 JLINK_WriteReg(R2, 0x20000164)  returns 0x00 (0000ms, 0553ms total)
T0B6C 001:101 JLINK_WriteReg(R3, 0x00000000)  returns 0x00 (0000ms, 0553ms total)
T0B6C 001:101 JLINK_WriteReg(R4, 0x00000000)  returns 0x00 (0000ms, 0553ms total)
T0B6C 001:101 JLINK_WriteReg(R5, 0x00000000)  returns 0x00 (0000ms, 0553ms total)
T0B6C 001:101 JLINK_WriteReg(R6, 0x00000000)  returns 0x00 (0000ms, 0553ms total)
T0B6C 001:101 JLINK_WriteReg(R7, 0x00000000)  returns 0x00 (0000ms, 0553ms total)
T0B6C 001:101 JLINK_WriteReg(R8, 0x00000000)  returns 0x00 (0000ms, 0553ms total)
T0B6C 001:101 JLINK_WriteReg(R9, 0x20000160)  returns 0x00 (0000ms, 0553ms total)
T0B6C 001:101 JLINK_WriteReg(R10, 0x00000000)  returns 0x00 (0000ms, 0553ms total)
T0B6C 001:101 JLINK_WriteReg(R11, 0x00000000)  returns 0x00 (0000ms, 0553ms total)
T0B6C 001:101 JLINK_WriteReg(R12, 0x00000000)  returns 0x00 (0000ms, 0553ms total)
T0B6C 001:101 JLINK_WriteReg(R13 (SP), 0x20001000)  returns 0x00 (0000ms, 0553ms total)
T0B6C 001:101 JLINK_WriteReg(R14, 0x20000001)  returns 0x00 (0000ms, 0553ms total)
T0B6C 001:101 JLINK_WriteReg(R15 (PC), 0x200000F4)  returns 0x00 (0000ms, 0553ms total)
T0B6C 001:101 JLINK_WriteReg(XPSR, 0x01000000)  returns 0x00 (0000ms, 0553ms total)
T0B6C 001:101 JLINK_WriteReg(MSP, 0x20001000)  returns 0x00 (0000ms, 0553ms total)
T0B6C 001:101 JLINK_WriteReg(PSP, 0x20001000)  returns 0x00 (0000ms, 0553ms total)
T0B6C 001:101 JLINK_WriteReg(CFBP, 0x00000000)  returns 0x00 (0000ms, 0553ms total)
T0B6C 001:101 JLINK_SetBPEx(Addr = 0x20000000, Type = 0xFFFFFFF2)  returns 0x0000000A (0000ms, 0553ms total)
T0B6C 001:101 JLINK_Go() -- CPU_ReadMem(4 bytes @ 0xE0001000) (0003ms, 0556ms total)
T0B6C 001:104 JLINK_IsHalted()  returns FALSE (0001ms, 0557ms total)
T0B6C 001:114 JLINK_IsHalted()  returns FALSE (0000ms, 0556ms total)
T0B6C 001:123 JLINK_IsHalted()  returns FALSE (0000ms, 0556ms total)
T0B6C 001:144 JLINK_IsHalted() -- CPU_ReadMem(2 bytes @ 0x20000000)  returns TRUE (0003ms, 0559ms total)
T0B6C 001:147 JLINK_ReadReg(R15 (PC))  returns 0x20000000 (0000ms, 0556ms total)
T0B6C 001:147 JLINK_ClrBPEx(BPHandle = 0x0000000A)  returns 0x00 (0000ms, 0556ms total)
T0B6C 001:147 JLINK_ReadReg(R0)  returns 0x00000000 (0000ms, 0556ms total)
T0B6C 001:148 JLINK_WriteMem(0x20000164, 0x0400 Bytes, ...) - Data: 77 D5 FF E7 05 98 00 68 B0 F8 50 00 04 99 09 78 ... -- CPU_WriteMem(1024 bytes @ 0x20000164)  returns 0x400 (0012ms, 0568ms total)
T0B6C 001:161 JLINK_WriteReg(R0, 0x08001800)  returns 0x00 (0000ms, 0568ms total)
T0B6C 001:161 JLINK_WriteReg(R1, 0x00000400)  returns 0x00 (0000ms, 0568ms total)
T0B6C 001:161 JLINK_WriteReg(R2, 0x20000164)  returns 0x00 (0000ms, 0568ms total)
T0B6C 001:161 JLINK_WriteReg(R3, 0x00000000)  returns 0x00 (0000ms, 0568ms total)
T0B6C 001:161 JLINK_WriteReg(R4, 0x00000000)  returns 0x00 (0000ms, 0568ms total)
T0B6C 001:161 JLINK_WriteReg(R5, 0x00000000)  returns 0x00 (0000ms, 0568ms total)
T0B6C 001:161 JLINK_WriteReg(R6, 0x00000000)  returns 0x00 (0000ms, 0568ms total)
T0B6C 001:161 JLINK_WriteReg(R7, 0x00000000)  returns 0x00 (0000ms, 0568ms total)
T0B6C 001:161 JLINK_WriteReg(R8, 0x00000000)  returns 0x00 (0000ms, 0568ms total)
T0B6C 001:161 JLINK_WriteReg(R9, 0x20000160)  returns 0x00 (0000ms, 0568ms total)
T0B6C 001:161 JLINK_WriteReg(R10, 0x00000000)  returns 0x00 (0000ms, 0568ms total)
T0B6C 001:161 JLINK_WriteReg(R11, 0x00000000)  returns 0x00 (0000ms, 0568ms total)
T0B6C 001:161 JLINK_WriteReg(R12, 0x00000000)  returns 0x00 (0000ms, 0568ms total)
T0B6C 001:161 JLINK_WriteReg(R13 (SP), 0x20001000)  returns 0x00 (0000ms, 0568ms total)
T0B6C 001:161 JLINK_WriteReg(R14, 0x20000001)  returns 0x00 (0000ms, 0568ms total)
T0B6C 001:161 JLINK_WriteReg(R15 (PC), 0x200000F4)  returns 0x00 (0000ms, 0568ms total)
T0B6C 001:161 JLINK_WriteReg(XPSR, 0x01000000)  returns 0x00 (0000ms, 0568ms total)
T0B6C 001:161 JLINK_WriteReg(MSP, 0x20001000)  returns 0x00 (0000ms, 0568ms total)
T0B6C 001:161 JLINK_WriteReg(PSP, 0x20001000)  returns 0x00 (0000ms, 0568ms total)
T0B6C 001:161 JLINK_WriteReg(CFBP, 0x00000000)  returns 0x00 (0000ms, 0568ms total)
T0B6C 001:161 JLINK_SetBPEx(Addr = 0x20000000, Type = 0xFFFFFFF2)  returns 0x0000000B (0000ms, 0568ms total)
T0B6C 001:161 JLINK_Go() -- CPU_ReadMem(4 bytes @ 0xE0001000) (0003ms, 0571ms total)
T0B6C 001:164 JLINK_IsHalted()  returns FALSE (0000ms, 0571ms total)
T0B6C 001:170 JLINK_IsHalted()  returns FALSE (0000ms, 0571ms total)
T0B6C 001:172 JLINK_IsHalted()  returns FALSE (0000ms, 0571ms total)
T0B6C 001:174 JLINK_IsHalted()  returns FALSE (0000ms, 0571ms total)
T0B6C 001:178 JLINK_IsHalted()  returns FALSE (0000ms, 0571ms total)
T0B6C 001:180 JLINK_IsHalted()  returns FALSE (0000ms, 0571ms total)
T0B6C 001:185 JLINK_IsHalted()  returns FALSE (0000ms, 0571ms total)
T0B6C 001:189 JLINK_IsHalted()  returns FALSE (0000ms, 0571ms total)
T0B6C 001:194 JLINK_IsHalted()  returns FALSE (0000ms, 0571ms total)
T0B6C 001:199 JLINK_IsHalted() -- CPU_ReadMem(2 bytes @ 0x20000000)  returns TRUE (0003ms, 0574ms total)
T0B6C 001:202 JLINK_ReadReg(R15 (PC))  returns 0x20000000 (0000ms, 0571ms total)
T0B6C 001:202 JLINK_ClrBPEx(BPHandle = 0x0000000B)  returns 0x00 (0000ms, 0571ms total)
T0B6C 001:202 JLINK_ReadReg(R0)  returns 0x00000000 (0000ms, 0571ms total)
T0B6C 001:203 JLINK_WriteMem(0x20000164, 0x0400 Bytes, ...) - Data: B8 80 FF E7 BD F8 86 20 24 99 48 69 10 44 48 61 ... -- CPU_WriteMem(1024 bytes @ 0x20000164)  returns 0x400 (0012ms, 0583ms total)
T0B6C 001:215 JLINK_WriteReg(R0, 0x08001C00)  returns 0x00 (0000ms, 0583ms total)
T0B6C 001:215 JLINK_WriteReg(R1, 0x00000400)  returns 0x00 (0000ms, 0583ms total)
T0B6C 001:215 JLINK_WriteReg(R2, 0x20000164)  returns 0x00 (0000ms, 0583ms total)
T0B6C 001:215 JLINK_WriteReg(R3, 0x00000000)  returns 0x00 (0000ms, 0583ms total)
T0B6C 001:215 JLINK_WriteReg(R4, 0x00000000)  returns 0x00 (0000ms, 0583ms total)
T0B6C 001:215 JLINK_WriteReg(R5, 0x00000000)  returns 0x00 (0000ms, 0583ms total)
T0B6C 001:215 JLINK_WriteReg(R6, 0x00000000)  returns 0x00 (0000ms, 0583ms total)
T0B6C 001:215 JLINK_WriteReg(R7, 0x00000000)  returns 0x00 (0000ms, 0583ms total)
T0B6C 001:215 JLINK_WriteReg(R8, 0x00000000)  returns 0x00 (0000ms, 0583ms total)
T0B6C 001:215 JLINK_WriteReg(R9, 0x20000160)  returns 0x00 (0000ms, 0583ms total)
T0B6C 001:215 JLINK_WriteReg(R10, 0x00000000)  returns 0x00 (0000ms, 0583ms total)
T0B6C 001:215 JLINK_WriteReg(R11, 0x00000000)  returns 0x00 (0000ms, 0583ms total)
T0B6C 001:215 JLINK_WriteReg(R12, 0x00000000)  returns 0x00 (0000ms, 0583ms total)
T0B6C 001:215 JLINK_WriteReg(R13 (SP), 0x20001000)  returns 0x00 (0000ms, 0583ms total)
T0B6C 001:215 JLINK_WriteReg(R14, 0x20000001)  returns 0x00 (0000ms, 0583ms total)
T0B6C 001:216 JLINK_WriteReg(R15 (PC), 0x200000F4)  returns 0x00 (0000ms, 0584ms total)
T0B6C 001:216 JLINK_WriteReg(XPSR, 0x01000000)  returns 0x00 (0000ms, 0584ms total)
T0B6C 001:216 JLINK_WriteReg(MSP, 0x20001000)  returns 0x00 (0000ms, 0584ms total)
T0B6C 001:216 JLINK_WriteReg(PSP, 0x20001000)  returns 0x00 (0000ms, 0584ms total)
T0B6C 001:216 JLINK_WriteReg(CFBP, 0x00000000)  returns 0x00 (0000ms, 0584ms total)
T0B6C 001:216 JLINK_SetBPEx(Addr = 0x20000000, Type = 0xFFFFFFF2)  returns 0x0000000C (0000ms, 0584ms total)
T0B6C 001:216 JLINK_Go() -- CPU_ReadMem(4 bytes @ 0xE0001000) (0002ms, 0586ms total)
T0B6C 001:218 JLINK_IsHalted()  returns FALSE (0000ms, 0586ms total)
T0B6C 001:224 JLINK_IsHalted()  returns FALSE (0000ms, 0586ms total)
T0B6C 001:228 JLINK_IsHalted()  returns FALSE (0000ms, 0586ms total)
T0B6C 001:230 JLINK_IsHalted()  returns FALSE (0000ms, 0586ms total)
T0B6C 001:232 JLINK_IsHalted()  returns FALSE (0000ms, 0586ms total)
T0B6C 001:234 JLINK_IsHalted()  returns FALSE (0000ms, 0586ms total)
T0B6C 001:239 JLINK_IsHalted()  returns FALSE (0000ms, 0586ms total)
T0B6C 001:241 JLINK_IsHalted()  returns FALSE (0000ms, 0586ms total)
T0B6C 001:244 JLINK_IsHalted()  returns FALSE (0000ms, 0586ms total)
T0B6C 001:246 JLINK_IsHalted()  returns FALSE (0001ms, 0587ms total)
T0B6C 001:253 JLINK_IsHalted() -- CPU_ReadMem(2 bytes @ 0x20000000)  returns TRUE (0003ms, 0589ms total)
T0B6C 001:256 JLINK_ReadReg(R15 (PC))  returns 0x20000000 (0000ms, 0586ms total)
T0B6C 001:256 JLINK_ClrBPEx(BPHandle = 0x0000000C)  returns 0x00 (0000ms, 0586ms total)
T0B6C 001:256 JLINK_ReadReg(R0)  returns 0x00000000 (0000ms, 0586ms total)
T0B6C 001:257 JLINK_WriteMem(0x20000164, 0x0400 Bytes, ...) - Data: 08 44 03 90 03 98 24 99 09 78 00 EB 01 10 00 F2 ... -- CPU_WriteMem(1024 bytes @ 0x20000164)  returns 0x400 (0012ms, 0598ms total)
T0B6C 001:269 JLINK_WriteReg(R0, 0x08002000)  returns 0x00 (0000ms, 0598ms total)
T0B6C 001:269 JLINK_WriteReg(R1, 0x00000400)  returns 0x00 (0000ms, 0598ms total)
T0B6C 001:269 JLINK_WriteReg(R2, 0x20000164)  returns 0x00 (0000ms, 0598ms total)
T0B6C 001:269 JLINK_WriteReg(R3, 0x00000000)  returns 0x00 (0000ms, 0598ms total)
T0B6C 001:269 JLINK_WriteReg(R4, 0x00000000)  returns 0x00 (0000ms, 0598ms total)
T0B6C 001:269 JLINK_WriteReg(R5, 0x00000000)  returns 0x00 (0000ms, 0598ms total)
T0B6C 001:269 JLINK_WriteReg(R6, 0x00000000)  returns 0x00 (0000ms, 0598ms total)
T0B6C 001:269 JLINK_WriteReg(R7, 0x00000000)  returns 0x00 (0000ms, 0598ms total)
T0B6C 001:269 JLINK_WriteReg(R8, 0x00000000)  returns 0x00 (0000ms, 0598ms total)
T0B6C 001:269 JLINK_WriteReg(R9, 0x20000160)  returns 0x00 (0000ms, 0598ms total)
T0B6C 001:269 JLINK_WriteReg(R10, 0x00000000)  returns 0x00 (0000ms, 0598ms total)
T0B6C 001:269 JLINK_WriteReg(R11, 0x00000000)  returns 0x00 (0000ms, 0598ms total)
T0B6C 001:269 JLINK_WriteReg(R12, 0x00000000)  returns 0x00 (0000ms, 0598ms total)
T0B6C 001:269 JLINK_WriteReg(R13 (SP), 0x20001000)  returns 0x00 (0000ms, 0598ms total)
T0B6C 001:269 JLINK_WriteReg(R14, 0x20000001)  returns 0x00 (0000ms, 0598ms total)
T0B6C 001:269 JLINK_WriteReg(R15 (PC), 0x200000F4)  returns 0x00 (0000ms, 0598ms total)
T0B6C 001:269 JLINK_WriteReg(XPSR, 0x01000000)  returns 0x00 (0001ms, 0599ms total)
T0B6C 001:270 JLINK_WriteReg(MSP, 0x20001000)  returns 0x00 (0000ms, 0599ms total)
T0B6C 001:270 JLINK_WriteReg(PSP, 0x20001000)  returns 0x00 (0000ms, 0599ms total)
T0B6C 001:270 JLINK_WriteReg(CFBP, 0x00000000)  returns 0x00 (0000ms, 0599ms total)
T0B6C 001:270 JLINK_SetBPEx(Addr = 0x20000000, Type = 0xFFFFFFF2)  returns 0x0000000D (0000ms, 0599ms total)
T0B6C 001:270 JLINK_Go() -- CPU_ReadMem(4 bytes @ 0xE0001000) (0002ms, 0601ms total)
T0B6C 001:272 JLINK_IsHalted()  returns FALSE (0000ms, 0601ms total)
T0B6C 001:313 JLINK_IsHalted() -- CPU_ReadMem(2 bytes @ 0x20000000)  returns TRUE (0003ms, 0604ms total)
T0B6C 001:316 JLINK_ReadReg(R15 (PC))  returns 0x20000000 (0000ms, 0601ms total)
T0B6C 001:316 JLINK_ClrBPEx(BPHandle = 0x0000000D)  returns 0x00 (0000ms, 0601ms total)
T0B6C 001:316 JLINK_ReadReg(R0)  returns 0x00000000 (0000ms, 0601ms total)
T0B6C 001:317 JLINK_WriteMem(0x20000164, 0x0400 Bytes, ...) - Data: 10 D5 FF E7 07 98 01 68 B1 F8 44 00 20 F4 80 60 ... -- CPU_WriteMem(1024 bytes @ 0x20000164)  returns 0x400 (0012ms, 0613ms total)
T0B6C 001:329 JLINK_WriteReg(R0, 0x08002400)  returns 0x00 (0000ms, 0613ms total)
T0B6C 001:329 JLINK_WriteReg(R1, 0x00000400)  returns 0x00 (0000ms, 0613ms total)
T0B6C 001:329 JLINK_WriteReg(R2, 0x20000164)  returns 0x00 (0000ms, 0613ms total)
T0B6C 001:329 JLINK_WriteReg(R3, 0x00000000)  returns 0x00 (0000ms, 0613ms total)
T0B6C 001:329 JLINK_WriteReg(R4, 0x00000000)  returns 0x00 (0000ms, 0613ms total)
T0B6C 001:329 JLINK_WriteReg(R5, 0x00000000)  returns 0x00 (0000ms, 0613ms total)
T0B6C 001:329 JLINK_WriteReg(R6, 0x00000000)  returns 0x00 (0000ms, 0613ms total)
T0B6C 001:329 JLINK_WriteReg(R7, 0x00000000)  returns 0x00 (0000ms, 0613ms total)
T0B6C 001:329 JLINK_WriteReg(R8, 0x00000000)  returns 0x00 (0000ms, 0613ms total)
T0B6C 001:329 JLINK_WriteReg(R9, 0x20000160)  returns 0x00 (0000ms, 0613ms total)
T0B6C 001:329 JLINK_WriteReg(R10, 0x00000000)  returns 0x00 (0000ms, 0613ms total)
T0B6C 001:329 JLINK_WriteReg(R11, 0x00000000)  returns 0x00 (0001ms, 0614ms total)
T0B6C 001:330 JLINK_WriteReg(R12, 0x00000000)  returns 0x00 (0000ms, 0614ms total)
T0B6C 001:330 JLINK_WriteReg(R13 (SP), 0x20001000)  returns 0x00 (0000ms, 0614ms total)
T0B6C 001:330 JLINK_WriteReg(R14, 0x20000001)  returns 0x00 (0000ms, 0614ms total)
T0B6C 001:330 JLINK_WriteReg(R15 (PC), 0x200000F4)  returns 0x00 (0000ms, 0614ms total)
T0B6C 001:330 JLINK_WriteReg(XPSR, 0x01000000)  returns 0x00 (0000ms, 0614ms total)
T0B6C 001:330 JLINK_WriteReg(MSP, 0x20001000)  returns 0x00 (0000ms, 0614ms total)
T0B6C 001:330 JLINK_WriteReg(PSP, 0x20001000)  returns 0x00 (0000ms, 0614ms total)
T0B6C 001:330 JLINK_WriteReg(CFBP, 0x00000000)  returns 0x00 (0000ms, 0614ms total)
T0B6C 001:330 JLINK_SetBPEx(Addr = 0x20000000, Type = 0xFFFFFFF2)  returns 0x0000000E (0000ms, 0614ms total)
T0B6C 001:330 JLINK_Go() -- CPU_ReadMem(4 bytes @ 0xE0001000) (0002ms, 0616ms total)
T0B6C 001:332 JLINK_IsHalted()  returns FALSE (0001ms, 0617ms total)
T0B6C 001:338 JLINK_IsHalted()  returns FALSE (0000ms, 0616ms total)
T0B6C 001:359 JLINK_IsHalted()  returns FALSE (0000ms, 0616ms total)
T0B6C 001:380 JLINK_IsHalted() -- CPU_ReadMem(2 bytes @ 0x20000000)  returns TRUE (0003ms, 0619ms total)
T0B6C 001:383 JLINK_ReadReg(R15 (PC))  returns 0x20000000 (0000ms, 0616ms total)
T0B6C 001:383 JLINK_ClrBPEx(BPHandle = 0x0000000E)  returns 0x00 (0000ms, 0616ms total)
T0B6C 001:383 JLINK_ReadReg(R0)  returns 0x00000000 (0000ms, 0616ms total)
T0B6C 001:384 JLINK_WriteMem(0x20000164, 0x0400 Bytes, ...) - Data: 0B 99 01 20 81 F8 A9 02 0B 98 00 68 07 F0 06 FB ... -- CPU_WriteMem(1024 bytes @ 0x20000164)  returns 0x400 (0012ms, 0628ms total)
T0B6C 001:396 JLINK_WriteReg(R0, 0x08002800)  returns 0x00 (0000ms, 0628ms total)
T0B6C 001:396 JLINK_WriteReg(R1, 0x00000400)  returns 0x00 (0000ms, 0628ms total)
T0B6C 001:396 JLINK_WriteReg(R2, 0x20000164)  returns 0x00 (0000ms, 0628ms total)
T0B6C 001:396 JLINK_WriteReg(R3, 0x00000000)  returns 0x00 (0000ms, 0628ms total)
T0B6C 001:396 JLINK_WriteReg(R4, 0x00000000)  returns 0x00 (0000ms, 0628ms total)
T0B6C 001:396 JLINK_WriteReg(R5, 0x00000000)  returns 0x00 (0000ms, 0628ms total)
T0B6C 001:396 JLINK_WriteReg(R6, 0x00000000)  returns 0x00 (0000ms, 0628ms total)
T0B6C 001:396 JLINK_WriteReg(R7, 0x00000000)  returns 0x00 (0000ms, 0628ms total)
T0B6C 001:396 JLINK_WriteReg(R8, 0x00000000)  returns 0x00 (0000ms, 0628ms total)
